I2C:ADDR 3c
#I2C:WRITE 80 af 80 a4
I2C:WRITE 80 FD 80 12 80 AE 80 A8 80 5F 
I2C:WRITE 80 A1 80 00 80 A2 80 60 80 A0
I2C:WRITE 80 46 80 AB 80 01 80 81 80 53
I2C:WRITE 80 B1 80 51 80 B3 80 01 80 B9
I2C:WRITE 80 BC 80 08 80 BE 80 07 80 B6
I2C:WRITE 80 01 80 D5 80 62 80 A4 80 2E 80 AF 
I2C:WRITE 40 00 00 00 00 00 00 00 00 00 00 00 00 00 00 00 00
I2C:WRITE 40 00 00 00 00 00 00 00 00 00 00 00 00 00 00 00 00
I2C:WRITE 40 00 00 00 00 00 00 00 00 00 00 00 00 00 00 00 00
I2C:WRITE 40 00 00 00 80 C0 40 20 20 20 20 20 20 20 20 20 20
I2C:WRITE 40 10 30 30 30 30 30 30 7E D1 10 10 20 E0 60 60 E0
I2C:WRITE 40 E3 FF DF FC FC FC F8 78 30 20 60 60 C0 40 C0 40
I2C:WRITE 40 C0 40 C0 40 40 80 C0 80 80 80 80 80 80 00 00 00
I2C:WRITE 40 00 00 00 00 00 00 00 00 00 00 00 00 00 00 00 00
I2C:WRITE 40 00 00 00 00 00 00 00 00 00 00 00 00 00 00 00 00
I2C:WRITE 40 00 00 00 00 00 00 00 00 00 00 00 00 00 00 00 00
I2C:WRITE 40 00 00 00 00 00 00 00 00 00 00 00 00 00 FC FE 36
I2C:WRITE 40 02 03 01 01 18 F9 C1 03 F7 E6 FE FC F8 50 60 E1
I2C:WRITE 40 C1 C1 C3 F6 DE C6 04 0C 0C 08 08 18 1F 3C 7E 7F
I2C:WRITE 40 FF FF FF FF FF FF E7 60 00 00 00 00 00 00 00 00
I2C:WRITE 40 00 00 00 00 04 00 04 00 00 00 00 01 05 01 03 02
I2C:WRITE 40 2E 3C F8 F8 F0 E0 E0 E0 C0 C0 80 00 00 00 00 00
I2C:WRITE 40 00 00 00 00 00 00 00 18 38 78 78 F8 F8 F8 E8 E0
I2C:WRITE 40 E0 C0 C0 C0 80 80 00 00 00 00 00 00 00 00 00 00
I2C:WRITE 40 00 00 00 00 00 00 00 00 00 00 80 C0 F0 FF FF F8
I2C:WRITE 40 40 00 00 00 06 03 00 12 0F DF E7 FE 0F 03 00 00
I2C:WRITE 40 00 03 0D 9F BF FF 7F E0 71 2F 13 11 12 30 9E 9E
I2C:WRITE 40 FC F8 FB FF FC FE 9A 32 62 80 00 00 00 00 00 00
I2C:WRITE 40 00 00 00 00 00 00 00 00 00 00 00 00 00 00 00 00
I2C:WRITE 40 00 00 01 07 DF FF FF FF FF FD B3 47 FE FC F0 00
I2C:WRITE 40 00 00 00 00 00 00 00 00 00 00 00 00 01 05 05 15
I2C:WRITE 40 37 37 77 F7 EF EF FF FF EF FF DE FE FC FC F8 F0
I2C:WRITE 40 F0 E0 60 20 00 10 08 44 42 D9 B7 EF FF FF FF FF
I2C:WRITE 40 81 00 38 78 3C 1C 0E 06 02 03 01 00 00 00 00 02
I2C:WRITE 40 03 01 01 81 80 80 FC C3 E0 70 08 FE FF 83 78 FE
I2C:WRITE 40 FF FF FF FF FF FF FF FE 78 00 00 00 00 00 00 00
I2C:WRITE 40 00 00 00 00 00 00 00 00 00 00 00 00 00 00 00 00
I2C:WRITE 40 00 00 00 00 00 FF FF FF FF FF FD FE F9 DF FF FF
I2C:WRITE 40 00 00 00 00 00 00 40 80 80 C0 E4 EC FC FC FE FC
I2C:WRITE 40 FC FC FC FC F8 F9 F9 FD FF F7 E7 E5 C7 C3 83 83
I2C:WRITE 40 81 01 02 04 0C 18 10 30 60 C0 80 00 01 03 07 1F
I2C:WRITE 40 1F 7F 7C F8 F8 F8 70 60 60 60 40 00 00 08 00 80
I2C:WRITE 40 10 40 70 D0 D8 D9 FF F1 E1 C0 80 80 01 03 1F 0F
I2C:WRITE 40 F3 FD 1F 0F 07 03 01 00 00 00 00 00 00 00 00 10
I2C:WRITE 40 C0 24 D8 60 C0 00 00 00 00 00 00 00 00 00 00 00
I2C:WRITE 40 00 00 00 00 1E FF F7 FF FF FF FF FF FF FF FF 3F
I2C:WRITE 40 00 00 00 00 00 00 00 00 00 01 03 07 0F 0B 7F F7
I2C:WRITE 40 FF FF FF FF FF FF FF FF FF FF FF FF FF FF FF FF
I2C:WRITE 40 FF FF FF FE FE FC FC FC F8 F0 F1 E3 E6 C4 8C 98
I2C:WRITE 40 30 60 C0 C0 C3 8F BF BE FC 70 70 E0 E0 E0 C0 40
I2C:WRITE 40 00 00 00 00 01 03 07 0F 0B 18 02 01 01 01 02 BF
I2C:WRITE 40 F9 80 80 80 80 80 C0 C0 E0 E0 E0 E0 E4 C0 C0 C0
I2C:WRITE 40 80 01 02 05 06 1D 3F C4 B4 C9 10 02 00 00 00 00
I2C:WRITE 40 00 00 00 00 00 FF FF FF FF FF FF FF 7F 1F 03 00
I2C:WRITE 40 00 00 00 00 00 10 10 10 20 30 70 70 70 70 20 00
I2C:WRITE 40 00 01 01 07 17 2F 6F FF FF FF FF FF FF FF FF FF
I2C:WRITE 40 FF FF FF FF FF FF FF FF FF FF FF FF FF FF 3F 07
I2C:WRITE 40 03 01 00 00 00 00 01 01 03 03 07 0F 0F 1E 38 40
I2C:WRITE 40 C0 90 20 43 FF FF 76 E6 42 C0 64 74 0C 18 30 C7
I2C:WRITE 40 9F 7F FF FF FF FF FF FF FF FF FF FF FF FF FF FF
I2C:WRITE 40 FF FF FE FC F8 F8 F0 F0 E1 E7 E7 EF FE F8 F8 FA
I2C:WRITE 40 FE FC F8 FF FE FC FF FF BF 0F 07 01 00 00 00 00
I2C:WRITE 40 00 00 00 00 00 00 00 00 00 00 00 00 00 00 00 00
I2C:WRITE 40 00 00 00 00 00 00 00 00 05 0B 13 37 2F 6F 5F BF
I2C:WRITE 40 7F FF FF FF FF FF FF FF FF 7F 3F 0F 03 00 00 00
I2C:WRITE 40 00 00 00 00 00 00 00 00 00 00 00 00 00 00 00 00
I2C:WRITE 40 00 01 01 02 02 05 05 05 09 08 08 08 0C 1C 14 1F
I2C:WRITE 40 3B 3C 3F 7F 7F FF FF FF FF FF FF FF FF FF FF FF
I2C:WRITE 40 FF FF FF FF FF EF FF FF FF FF FF FF FF FF 7F 3F
I2C:WRITE 40 1F 0F 0F 07 07 01 01 00 00 00 00 00 00 00 00 00
